
Log Start : 2019.10.02  10.46  
Select item within "MODBUS PORT 1" for diagnostic information
Select item within "MODBUS PORT 2" for diagnostic information
[01]
[04][00][7D][00][2B][20][0D]<R+><01><04><56><00><00><00><00><00><00><00><00><00>
<00><00><00><00><00><00><00><00><00><00><00><00><00><00><00><00><00><00><00><00>
<00><00><00><00><00><00><00><00><00><00><00><00><00><00><00><00><00><00><00><07>
<E3><00><08><00><1C><00><08><00><36><00><0A><02><49><00><00><00><00><00><00><00>
<00><00><00><40><00><40><00><60><00><60><00><60><00><40><00><40><00><CF><1A><R->
[01][02][00][00][02][50][79][56]<R+><01><02><4A><04><00><00><00><00><00><00><00>
<00><00><00><00><00><00><00><00><00><00><00><00><00><00><00><00><00><00><00><00>
<00><00><24><00><00><00><00><00><00><00><00><00><2C><10><01><00><00><00><00><00>
<00><00><2C><88><00><00><00><00><00><00><00><00><62><00><00><00><00><00><00><00>
<00><00><2C><88><00><00><CB><58><R->[01][04][00][00][00][7C][F1][EB]<R+><01><04>
<F8><00><03><00><00><00><00><00><00><00><00><00><00><00><00><00><00><00><00><00>
<00><00><00><00><00><00><00><00><00><00><00><00><00><00><00><00><00><00><00><00>
<00><00><00><00><00><00><00><00><00><00><00><00><00><00><00><00><00><00><00><07>
<E3><00><08><00><1C><00><08><00><36><00><0A><02><49><00><00><00><00><00><00><00>
<00><00><03><00><00><00><00><00><00><00><00><00><00><00><00><00><00><00><00><00>
<00><00><00><00><00><00><00><00><00><00><00><00><00><00><00><00><00><00><00><00>
<00><00><00><00><00><00><00><00><00><00><00><00><00><00><00><00><00><00><00><07>
<E3><00><08><00><1C><00><08><00><36><00><0A><02><49><00><00><00><00><00><00><00>
<00><00><03><00><00><00><00><00><00><00><00><00><00><00><00><00><00><00><00><00>
<00><00><00><00><00><00><00><00><00><00><00><00><00><00><00><00><00><00><00><00>
<00><00><00><00><00><00><00><00><00><00><00><00><00><00><00><00><00><00><00><07>
<E3><00><08><00><1C><00><08><00><36><00><0A><02><49><00><00><00><00><00><00><00>
<00><00><03><00><00><00><00><00><00><78><B8><R->[01][04][00][7D][00][2B][20][0D]
<R+><01><04><56><00><00><00><00><00><00><00><00><00><00><00><00><00><00><00><00>
<00><00><00><00><00><00><00><00><00><00><00><00><00><00><00><00><00><00><00><00>
<00><00><00><00><00><00><00><00><00><00><00><00><07><E3><00><08><00><1C><00><08>
<00><36><00><0A><02><49><00><00><00><00><00><00><00><00><00><00><40><00><40><00>
<60><00><60><00><60><00><40><00><40><00><CF><1A><R->[01][02][00][00][02][50][79]
[56]<R+><01><02><4A><04><00><00><00><00><00><00><00><00><00><00><00><00><00><00>
<00><00><00><00><00><00><00><00><00><00><00><00><00><00><00><24><00><00><00><00>
<00><00><00><00><00><2C><10><01><00><00><00><00><00><00><00><2C><88><00><00><00>
<00><00><00><00><00><62><00><00><00><00><00><00><00><00><00><2C><88><00><00><CB>
<58><R->[01][03][00][00][00][01][84][0A]<R+><01><03><02><00><00><B8><44><R->[01]
[04][00][00][00][7C][F1][EB]<R+><01><04><F8><00><03><00><00><00><00><00><00><00>
<00><00><00><00><00><00><00><00><00><00><00><00><00><00><00><00><00><00><00><00>
<00><00><00><00><00><00><00><00><00><00><00><00><00><00><00><00><00><00><00><00>
<00><00><00><00><00><00><00><00><00><07><E3><00><08><00><1C><00><08><00><36><00>
<0A><02><49><00><00><00><00><00><00><00><00><00><03><00><00><00><00><00><00><00>
<00><00><00><00><00><00><00><00><00><00><00><00><00><00><00><00><00><00><00><00>
<00><00><00><00><00><00><00><00><00><00><00><00><00><00><00><00><00><00><00><00>
<00><00><00><00><00><00><00><00><00><07><E3><00><08><00><1C><00><08><00><36><00>
<0A><02><49><00><00><00><00><00><00><00><00><00><03><00><00><00><00><00><00><00>
<00><00><00><00><00><00><00><00><00><00><00><00><00><00><00><00><00><00><00><00>
<00><00><00><00><00><00><00><00><00><00><00><00><00><00><00><00><00><00><00><00>
<00><00><00><00><00><00><00><00><00><07><E3><00><08><00><1C><00><08><00><36><00>
<0A><02><49><00><00><00><00><00><00><00><00><00><03><00><00><00><00><00><00><78>
<B8><R->[01][04][00][7D][00][2B][20][0D]<R+><01><04><56><00><00><00><00><00><00>
<00><00><00><00><00><00><00><00><00><00><00><00><00><00><00><00><00><00><00><00>
<00><00><00><00><00><00><00><00><00><00><00><00><00><00><00><00><00><00><00><00>
<00><00><07><E3><00><08><00><1C><00><08><00><36><00><0A><02><49><00><00><00><00>
<00><00><00><00><00><00><40><00><40><00><60><00><60><00><60><00><40><00><40><00>
<CF><1A><R->[01][02][00][00][02][50][79][56]<R+><01><02><4A><04><00><00><00><00>
<00><00><00><00><00><00><00><00><00><00><00><00><00><00><00><00><00><00><00><00>
<00><00><00><00><00><24><00><00><00><00><00><00><00><00><00><2C><10><01><00><00>
<00><00><00><00><00><2C><88><00><00><00><00><00><00><00><00><62><00><00><00><00>
<00><00><00><00><00><2C><88><00><00><CB><58><R->[01][04][00][00][00][7C][F1][EB]
<R+><01><04><F8><00><03><00><00><00><00><00><00><00><00><00><00><00><00><00><00>
<00><00><00><00><00><00><00><00><00><00><00><00><00><00><00><00><00><00><00><00>
<00><00><00><00><00><00><00><00><00><00><00><00><00><00><00><00><00><00><00><00>
<00><00><07><E3><00><08><00><1C><00><08><00><36><00><0A><02><49><00><00><00><00>
<00><00><00><00><00><03><00><00><00><00><00><00><00><00><00><00><00><00><00><00>
<00><00><00><00><00><00><00><00><00><00><00><00><00><00><00><00><00><00><00><00>
<00><00><00><00><00><00><00><00><00><00><00><00><00><00><00><00><00><00><00><00>
<00><00><07><E3><00><08><00><1C><00><08><00><36><00><0A><02><49><00><00><00><00>
<00><00><00><00><00><03><00><00><00><00><00><00><00><00><00><00><00><00><00><00>
<00><00><00><00><00><00><00><00><00><00><00><00><00><00><00><00><00><00><00><00>
<00><00><00><00><00><00><00><00><00><00><00><00><00><00><00><00><00><00><00><00>
<00><00><07><E3><00><08><00><1C><00><08><00><36><00><0A><02><49><00><00><00><00>
<00><00><00><00><00><03><00><00><00><00><00><00><78><B8><R->[01][04][00][7D][00]
[2B][20][0D]<R+><01><04><56><00><00><00><00><00><00><00><00><00><00><00><00><00>
<00><00><00><00><00><00><00><00><00><00><00><00><00><00><00><00><00><00><00><00>
<00><00><00><00><00><00><00><00><00><00><00><00><00><00><00><07><E3><00><08><00>
<1C><00><08><00><36><00><0A><02><49><00><00><00><00><00><00><00><00><00><00><40>
<00><40><00><60><00><60><00><60><00><40><00><40><00><CF><1A><R->[01][02][00][00]
[02][50][79][56]<R+><01><02><4A><04><00><00><00><00><00><00><00><00><00><00><00>
<00><00><00><00><00><00><00><00><00><00><00><00><00><00><00><00><00><00><24><00>
<00><00><00><00><00><00><00><00><2C><10><01><00><00><00><00><00><00><00><2C><88>
<00><00><00><00><00><00><00><00><62><00><00><00><00><00><00><00><00><00><2C><88>
<00><00><CB><58><R->[01][04][00][00][00][7C][F1][EB]<R+><01><04><F8><00><03><00>
<00><00><00><00><00><00><00><00><00><00><00><00><00><00><00><00><00><00><00><00>
<00><00><00><00><00><00><00><00><00><00><00><00><00><00><00><00><00><00><00><00>
<00><00><00><00><00><00><00><00><00><00><00><00><00><00><00><07><E3><00><08><00>
<1C><00><08><00><36><00><0A><02><49><00><00><00><00><00><00><00><00><00><03><00>
<00><00><00><00><00><00><00><00><00><00><00><00><00><00><00><00><00><00><00><00>
<00><00><00><00><00><00><00><00><00><00><00><00><00><00><00><00><00><00><00><00>
<00><00><00><00><00><00><00><00><00><00><00><00><00><00><00><07><E3><00><08><00>
<1C><00><08><00><36><00><0A><02><49><00><00><00><00><00><00><00><00><00><03><00>
<00><00><00><00><00><00><00><00><00><00><00><00><00><00><00><00><00><00><00><00>
<00><00><00><00><00><00><00><00><00><00><00><00><00><00><00><00><00><00><00><00>
<00><00><00><00><00><00><00><00><00><00><00><00><00><00><00><07><E3><00><08><00>
<1C><00><08><00><36><00><0A><02><49><00><00><00><00><00><00><00><00><00><03><00>
<00><00><00><00><00><78><B8><R->[01][04][00][7D][00][2B][20][0D]<R+><01><04><56>
<00><00><00><00><00><00><00><00><00><00><00><00><00><00><00><00><00><00><00><00>
<00><00><00><00><00><00><00><00><00><00><00><00><00><00><00><00><00><00><00><00>
<00><00><00><00><00><00><00><00><07><E3><00><08><00><1C><00><08><00><36><00><0A>
<02><49><00><00><00><00><00><00><00><00><00><00><40><00><40><00><60><00><60><00>
<60><00><40><00><40><00><CF><1A><R->[01][02][00][00][02][50][79][56]<R+><01><02>
<4A><04><00><00><00><00><00><00><00><00><00><00><00><00><00><00><00><00><00><00>
<00><00><00><00><00><00><00><00><00><00><00><24><00><00><00><00><00><00><00><00>
<00><2C><10><01><00><00><00><00><00><00><00><2C><88><00><00><00><00><00><00><00>
<00><62><00><00><00><00><00><00><00><00><00><2C><88><00><00><CB><58><R->[01][04]
[00][00][00][7C][F1][EB]<R+><01><04><F8><00><03><00><00><00><00><00><00><00><00>
<00><00><00><00><00><00><00><00><00><00><00><00><00><00><00><00><00><00><00><00>
<00><00><00><00><00><00><00><00><00><00><00><00><00><00><00><00><00><00><00><00>
<00><00><00><00><00><00><00><00><07><E3><00><08><00><1C><00><08><00><36><00><0A>
<02><49><00><00><00><00><00><00><00><00><00><03><00><00><00><00><00><00><00><00>
<00><00><00><00><00><00><00><00><00><00><00><00><00><00><00><00><00><00><00><00>
<00><00><00><00><00><00><00><00><00><00><00><00><00><00><00><00><00><00><00><00>
<00><00><00><00><00><00><00><00><07><E3><00><08><00><1C><00><08><00><36><00><0A>
<02><49><00><00><00><00><00><00><00><00><00><03><00><00><00><00><00><00><00><00>
<00><00><00><00><00><00><00><00><00><00><00><00><00><00><00><00><00><00><00><00>
<00><00><00><00><00><00><00><00><00><00><00><00><00><00><00><00><00><00><00><00>
<00><00><00><00><00><00><00><00><07><E3><00><08><00><1C><00><08><00><36><00><0A>
<02><49><00><00><00><00><00><00><00><00><00><03><00><00><00><00><00><00><78><B8>
<R->[01][03][00][00][00][01][84][0A]<R+><01><03><02><00><00><B8><44><R->[01][04]
[00][7D][00][2B][20][0D]<R+><01><04><56><00><00><00><00><00><00><00><00><00><00>
<00><00><00><00><00><00><00><00><00><00><00><00><00><00><00><00><00><00><00><00>
<00><00><00><00><00><00><00><00><00><00><00><00><00><00><00><00><00><00><07><E3>
<00><08><00><1C><00><08><00><36><00><0A><02><49><00><00><00><00><00><00><00><00>
<00><00><40><00><40><00><60><00><60><00><60><00><40><00><40><00><CF><1A><R->[01]
[02][00][00][02][50][79][56]<R+><01><02><4A><04><00><00><00><00><00><00><00><00>
<00><00><00><00><00><00><00><00><00><00><00><00><00><00><00><00><00><00><00><00>
<00><24><00><00><00><00><00><00><00><00><00><2C><10><01><00><00><00><00><00><00>
<00><2C><88><00><00><00><00><00><00><00><00><62><00><00><00><00><00><00><00><00>
<00><2C><88><00><00><CB><58><R->[01][04][00][00][00][7C][F1][EB]<R+><01><04><F8>
<00><03><00><00><00><00><00><00><00><00><00><00><00><00><00><00><00><00><00><00>
<00><00><00><00><00><00><00><00><00><00><00><00><00><00><00><00><00><00><00><00>
<00><00><00><00><00><00><00><00><00><00><00><00><00><00><00><00><00><00><07><E3>
<00><08><00><1C><00><08><00><36><00><0A><02><49><00><00><00><00><00><00><00><00>
<00><03><00><00><00><00><00><00><00><00><00><00><00><00><00><00><00><00><00><00>
<00><00><00><00><00><00><00><00><00><00><00><00><00><00><00><00><00><00><00><00>
<00><00><00><00><00><00><00><00><00><00><00><00><00><00><00><00><00><00><07><E3>
<00><08><00><1C><00><08><00><36><00><0A><02><49><00><00><00><00><00><00><00><00>
<00><03><00><00><00><00><00><00><00><00><00><00><00><00><00><00><00><00><00><00>
<00><00><00><00><00><00><00><00><00><00><00><00><00><00><00><00><00><00><00><00>
<00><00><00><00><00><00><00><00><00><00><00><00><00><00><00><00><00><00><07><E3>
<00><08><00><1C><00><08><00><36><00><0A><02><49><00><00><00><00><00><00><00><00>
<00><03><00><00><00><00><00><00><78><B8><R->[01][04][00][7D][00][2B][20][0D]<R+>
<01><04><56><00><00><00><00><00><00><00><00><00><00><00><00><00><00><00><00><00>
<00><00><00><00><00><00><00><00><00><00><00><00><00><00><00><00><00><00><00><00>
<00><00><00><00><00><00><00><00><00><00><00><07><E3><00><08><00><1C><00><08><00>
<36><00><0A><02><49><00><00><00><00><00><00><00><00><00><00><40><00><40><00><60>
<00><60><00><60><00><40><00><40><00><CF><1A><R->[01][02][00][00][02][50][79][56]
<R+><01><02><4A><04><00><00><00><00><00><00><00><00><00><00><00><00><00><00><00>
<00><00><00><00><00><00><00><00><00><00><00><00><00><00><24><00><00><00><00><00>
<00><00><00><00><2C><10><01><00><00><00><00><00><00><00><2C><88><00><00><00><00>
<00><00><00><00><62><00><00><00><00><00><00><00><00><00><2C><88><00><00><CB><58>
<R->[01][04][00][00][00][7C][F1][EB]<R+><01><04><F8><00><03><00><00><00><00><00>
<00><00><00><00><00><00><00><00><00><00><00><00><00><00><00><00><00><00><00><00>
<00><00><00><00><00><00><00><00><00><00><00><00><00><00><00><00><00><00><00><00>
<00><00><00><00><00><00><00><00><00><00><00><07><E3><00><08><00><1C><00><08><00>
<36><00><0A><02><49><00><00><00><00><00><00><00><00><00><03><00><00><00><00><00>
<00><00><00><00><00><00><00><00><00><00><00><00><00><00><00><00><00><00><00><00>
<00><00><00><00><00><00><00><00><00><00><00><00><00><00><00><00><00><00><00><00>
<00><00><00><00><00><00><00><00><00><00><00><07><E3><00><08><00><1C><00><08><00>
<36><00><0A><02><49><00><00><00><00><00><00><00><00><00><03><00><00><00><00><00>
<00><00><00><00><00><00><00><00><00><00><00><00><00><00><00><00><00><00><00><00>
<00><00><00><00><00><00><00><00><00><00><00><00><00><00><00><00><00><00><00><00>
<00><00><00><00><00><00><00><00><00><00><00><07><E3><00><08><00><1C><00><08><00>
<36><00><0A><02><49><00><00><00><00><00><00><00><00><00><03><00><00><00><00><00>
<00><78><B8><R->[01][04][00][7D][00][2B][20][0D]<R+><01><04><56><00><00><00><00>
<00><00><00><00><00><00><00><00><00><00><00><00><00><00><00><00><00><00><00><00>
<00><00><00><00><00><00><00><00><00><00><00><00><00><00><00><00><00><00><00><00>
<00><00><00><00><07><E3><00><08><00><1C><00><08><00><36><00><0A><02><49><00><00>
<00><00><00><00><00><00><00><00><40><00><40><00><60><00><60><00><60><00><40><00>
<40><00><CF><1A><R->[01][02][00][00][02][50][79][56]<R+><01><02><4A><04><00><00>
<00><00><00><00><00><00><00><00><00><00><00><00><00><00><00><00><00><00><00><00>
<00><00><00><00><00><00><00><24><00><00><00><00><00><00><00><00><00><2C><10><01>
<00><00><00><00><00><00><00><2C><88><00><00><00><00><00><00><00><00><62><00><00>
<00><00><00><00><00><00><00><2C><88><00><00><CB><58><R->[01][04][00][00][00][7C]
[F1][EB]<R+><01><04><F8><00><03><00><00><00><00><00><00><00><00><00><00><00><00>
<00><00><00><00><00><00><00><00><00><00><00><00><00><00><00><00><00><00><00><00>
<00><00><00><00><00><00><00><00><00><00><00><00><00><00><00><00><00><00><00><00>
<00><00><00><00><07><E3><00><08><00><1C><00><08><00><36><00><0A><02><49><00><00>
<00><00><00><00><00><00><00><03><00><00><00><00><00><00><00><00><00><00><00><00>
<00><00><00><00><00><00><00><00><00><00><00><00><00><00><00><00><00><00><00><00>
<00><00><00><00><00><00><00><00><00><00><00><00><00><00><00><00><00><00><00><00>
<00><00><00><00><07><E3><00><08><00><1C><00><08><00><36><00><0A><02><49><00><00>
<00><00><00><00><00><00><00><03><00><00><00><00><00><00><00><00><00><00><00><00>
<00><00><00><00><00><00><00><00><00><00><00><00><00><00><00><00><00><00><00><00>
<00><00><00><00><00><00><00><00><00><00><00><00><00><00><00><00><00><00><00><00>
<00><00><00><00><07><E3><00><08><00><1C><00><08><00><36><00><0A><02><49><00><00>
<00><00><00><00><00><00><00><03><00><00><00><00><00><00><78><B8><R->[01][04][00]
[7D][00][2B][20][0D]<R+><01><04><56><00><00><00><00><00><00><00><00><00><00><00>
<00><00><00><00><00><00><00><00><00><00><00><00><00><00><00><00><00><00><00><00>
<00><00><00><00><00><00><00><00><00><00><00><00><00><00><00><00><00><07><E3><00>
<08><00><1C><00><08><00><36><00><0A><02><49><00><00><00><00><00><00><00><00><00>
<00><40><00><40><00><60><00><60><00><60><00><40><00><40><00><CF><1A><R->[01][02]
[00][00][02][50][79][56]<R+><01><02><4A><04><00><00><00><00><00><00><00><00><00>
<00><00><00><00><00><00><00><00><00><00><00><00><00><00><00><00><00><00><00><00>
<24><00><00><00><00><00><00><00><00><00><2C><10><01><00><00><00><00><00><00><00>
<2C><88><00><00><00><00><00><00><00><00><62><00><00><00><00><00><00><00><00><00>
<2C><88><00><00><CB><58><R->[01][03][00][00][00][01][84][0A]<R+><01><03><02><00>
<00><B8><44><R->Select item within "MODBUS PORT 1" for diagnostic information

Log Start : 2019.10.02  13.25  
<00><00>
<00><00><00><00><00><00><00><00><07><E3><00><08><00><1C><00><08><00><36><00><0A>
<02><49><00><00><00><00><00><00><00><00><00><03><00><00><00><00><00><00><78><B8>
<R->[01][04][00][7D][00][2B][20][0D]<R+><01><04><56><00><00><00><00><00><00><00>
<00><00><00><00><00><00><00><00><00><00><00><00><00><00><00><00><00><00><00><00>
<00><00><00><00><00><00><00><00><00><00><00><00><00><00><00><00><00><00><00><00>
<00><07><E3><00><08><00><1C><00><08><00><36><00><0A><02><49><00><00><00><00><00>
<00><00><00><00><00><40><00><40><00><60><00><60><00><60><00><40><00><40><00><CF>
<1A><R->[01][02][00][00][02][50][79][56]<R+><01><02><4A><04><00><00><00><00><00>
<00><00><00><00><00><00><00><00><00><00><00><00><00><00><00><00><00><00><00><00>
<00><00><00><00><24><00><00><00><00><00><00><00><00><00><2C><10><01><00><00><00>
<00><00><00><00><2C><88><00><00><00><00><00><00><00><00><62><00><00><00><00><00>
<00><00><00><00><2C><88><00><00><CB><58><R->[01][04][00][00][00][7C][F1][EB]<R+>
<01><04><F8><00><03><00><00><00><00><00><00><00><00><00><00><00><00><00><00><00>
<00><00><00><00><00><00><00><00><00><00><00><00><00><00><00><00><00><00><00><00>
<00><00><00><00><00><00><00><00><00><00><00><00><00><00><00><00><00><00><00><00>
<00><07><E3><00><08><00><1C><00><08><00><36><00><0A><02><49><00><00><00><00><00>
<00><00><00><00><03><00><00><00><00><00><00><00><00><00><00><00><00><00><00><00>
<00><00><00><00><00><00><00><00><00><00><00><00><00><00><00><00><00><00><00><00>
<00><00><00><00><00><00><00><00><00><00><00><00><00><00><00><00><00><00><00><00>
<00><07><E3><00><08><00><1C><00><08><00><36><00><0A><02><49><00><00><00><00><00>
<00><00><00><00><03><00><00><00><00><00><00><00><00><00><00><00><00><00><00><00>
<00><00><00><00><00><00><00><00><00><00><00><00><00><00><00><00><00><00><00><00>
<00><00><00><00><00><00><00><00><00><00><00><00><00><00><00><00><00><00><00><00>
<00><07><E3><00><08><00><1C><00><08><00><36><00><0A><02><49><00><00><00><00><00>
<00><00><00><00><03><00><00><00><00><00><00><78><B8><R->[01][03][00][00][00][01]
[84][0A]<R+><01><03><02><00><00><B8><44><R->[01][04][00][7D][00][2B][20][0D]<R+>
<01><04><56><00><00><00><00><00><00><00><00><00><00><00><00><00><00><00><00><00>
<00><00><00><00><00><00><00><00><00><00><00><00><00><00><00><00><00><00><00><00>
<00><00><00><00><00><00><00><00><00><00><00><07><E3><00><08><00><1C><00><08><00>
<36><00><0A><02><49><00><00><00><00><00><00><00><00><00><00><40><00><40><00><60>
<00><60><00><60><00><40><00><40><00><CF><1A><R->[01][02][00][00][02][50][79][56]
<R+><01><02><4A><04><00><00><00><00><00><00><00><00><00><00><00><00><00><00><00>
<00><00><00><00><00><00><00><00><00><00><00><00><00><00><24><00><00><00><00><00>
<00><00><00><00><2C><10><01><00><00><00><00><00><00><00><2C><88><00><00><00><00>
<00><00><00><00><62><00><00><00><00><00><00><00><00><00><2C><88><00><00><CB><58>
<R->[01][04][00][00][00][7C][F1][EB]<R+><01><04><F8><00><03><00><00><00><00><00>
<00><00><00><00><00><00><00><00><00><00><00><00><00><00><00><00><00><00><00><00>
<00><00><00><00><00><00><00><00><00><00><00><00><00><00><00><00><00><00><00><00>
<00><00><00><00><00><00><00><00><00><00><00><07><E3><00><08><00><1C><00><08><00>
<36><00><0A><02><49><00><00><00><00><00><00><00><00><00><03><00><00><00><00><00>
<00><00><00><00><00><00><00><00><00><00><00><00><00><00><00><00><00><00><00><00>
<00><00><00><00><00><00><00><00><00><00><00><00><00><00><00><00><00><00><00><00>
<00><00><00><00><00><00><00><00><00><00><00><07><E3><00><08><00><1C><00><08><00>
<36><00><0A><02><49><00><00><00><00><00><00><00><00><00><03><00><00><00><00><00>
<00><00><00><00><00><00><00><00><00><00><00><00><00><00><00><00><00><00><00><00>
<00><00><00><00><00><00><00><00><00><00><00><00><00><00><00><00><00><00><00><00>
<00><00><00><00><00><00><00><00><00><00><00><07><E3><00><08><00><1C><00><08><00>
<36><00><0A><02><49><00><00><00><00><00><00><00><00><00><03><00><00><00><00><00>
<00><78><B8><R->[01][04][00][7D][00][2B][20][0D]<R+><01><04><56><00><00><00><00>
<00><00><00><00><00><00><00><00><00><00><00><00><00><00><00><00><00><00><00><00>
<00><00><00><00><00><00><00><00><00><00><00><00><00><00><00><00><00><00><00><00>
<00><00><00><00><07><E3><00><08><00><1C><00><08><00><36><00><0A><02><49><00><00>
<00><00><00><00><00><00><00><00><40><00><40><00><60><00><60><00><60><00><40><00>
<40><00><CF><1A><R->[01][02][00][00][02][50][79][56]<R+><01><02><4A><04><00><00>
<00><00><00><00><00><00><00><00><00><00><00><00><00><00><00><00><00><00><00><00>
<00><00><00><00><00><00><00><24><00><00><00><00><00><00><00><00><00><2C><10><01>
<00><00><00><00><00><00><00><2C><88><00><00><00><00><00><00><00><00><62><00><00>
<00><00><00><00><00><00><00><2C><88><00><00><CB><58><R->[01][04][00][00][00][7C]
[F1][EB]<R+><01><04><F8><00><03><00><00><00><00><00><00><00><00><00><00><00><00>
<00><00><00><00><00><00><00><00><00><00><00><00><00><00><00><00><00><00><00><00>
<00><00><00><00><00><00><00><00><00><00><00><00><00><00><00><00><00><00><00><00>
<00><00><00><00><07><E3><00><08><00><1C><00><08><00><36><00><0A><02><49><00><00>
<00><00><00><00><00><00><00><03><00><00><00><00><00><00><00><00><00><00><00><00>
<00><00><00><00><00><00><00><00><00><00><00><00><00><00><00><00><00><00><00><00>
<00><00><00><00><00><00><00><00><00><00><00><00><00><00><00><00><00><00><00><00>
<00><00><00><00><07><E3><00><08><00><1C><00><08><00><36><00><0A><02><49><00><00>
<00><00><00><00><00><00><00><03><00><00><00><00><00><00><00><00><00><00><00><00>
<00><00><00><00><00><00><00><00><00><00><00><00><00><00><00><00><00><00><00><00>
<00><00><00><00><00><00><00><00><00><00><00><00><00><00><00><00><00><00><00><00>
<00><00><00><00><07><E3><00><08><00><1C><00><08><00><36><00><0A><02><49><00><00>
<00><00><00><00><00><00><00><03><00><00><00><00><00><00><78><B8><R->[01][04][00]
[7D][00][2B][20][0D]<R+><01><04><56><00><00><00><00><00><00><00><00><00><00><00>
<00><00><00><00><00><00><00><00><00><00><00><00><00><00><00><00><00><00><00><00>
<00><00><00><00><00><00><00><00><00><00><00><00><00><00><00><00><00><07><E3><00>
<08><00><1C><00><08><00><36><00><0A><02><49><00><00><00><00><00><00><00><00><00>
<00><40><00><40><00><60><00><60><00><60><00><40><00><40><00><CF><1A><R->[01][02]
[00][00][02][50][79][56]<R+><01><02><4A><04><00><00><00><00><00><00><00><00><00>
<00><00><00><00><00><00><00><00><00><00><00><00><00><00><00><00><00><00><00><00>
<24><00><00><00><00><00><00><00><00><00><2C><10><01><00><00><00><00><00><00><00>
<2C><88><00><00><00><00><00><00><00><00><62><00><00><00><00><00><00><00><00><00>
<2C><88><00><00><CB><58><R->[01][04][00][00][00][7C][F1][EB]<R+><01><04><F8><00>
<03><00><00><00><00><00><00><00><00><00><00><00><00><00><00><00><00><00><00><00>
<00><00><00><00><00><00><00><00><00><00><00><00><00><00><00><00><00><00><00><00>
<00><00><00><00><00><00><00><00><00><00><00><00><00><00><00><00><00><07><E3><00>
<08><00><1C><00><08><00><36><00><0A><02><49><00><00><00><00><00><00><00><00><00>
<03><00><00><00><00><00><00><00><00><00><00><00><00><00><00><00><00><00><00><00>
<00><00><00><00><00><00><00><00><00><00><00><00><00><00><00><00><00><00><00><00>
<00><00><00><00><00><00><00><00><00><00><00><00><00><00><00><00><00><07><E3><00>
<08><00><1C><00><08><00><36><00><0A><02><49><00><00><00><00><00><00><00><00><00>
<03><00><00><00><00><00><00><00><00><00><00><00><00><00><00><00><00><00><00><00>
<00><00><00><00><00><00><00><00><00><00><00><00><00><00><00><00><00><00><00><00>
<00><00><00><00><00><00><00><00><00><00><00><00><00><00><00><00><00><07><E3><00>
<08><00><1C><00><08><00><36><00><0A><02><49><00><00><00><00><00><00><00><00><00>
<03><00><00><00><00><00><00><78><B8><R->[01][04][00][7D][00][2B][20][0D]<R+><01>
<04><56><00><00><00><00><00><00><00><00><00><00><00><00><00><00><00><00><00><00>
<00><00><00><00><00><00><00><00><00><00><00><00><00><00><00><00><00><00><00><00>
<00><00><00><00><00><00><00><00><00><00><07><E3><00><08><00><1C><00><08><00><36>
<00><0A><02><49><00><00><00><00><00><00><00><00><00><00><40><00><40><00><60><00>
<60><00><60><00><40><00><40><00><CF><1A><R->[01][03][00][00][00][01][84][0A]<R+>
<01><03><02><00><00><B8><44><R->[01][02][00][00][02][50][79][56]<R+><01><02><4A>
<04><00><00><00><00><00><00><00><00><00><00><00><00><00><00><00><00><00><00><00>
<00><00><00><00><00><00><00><00><00><00><24><00><00><00><00><00><00><00><00><00>
<2C><10><01><00><00><00><00><00><00><00><2C><88><00><00><00><00><00><00><00><00>
<62><00><00><00><00><00><00><00><00><00><2C><88><00><00><CB><58><R->[01][04][00]
[00][00][7C][F1][EB]<R+><01><04><F8><00><03><00><00><00><00><00><00><00><00><00>
<00><00><00><00><00><00><00><00><00><00><00><00><00><00><00><00><00><00><00><00>
<00><00><00><00><00><00><00><00><00><00><00><00><00><00><00><00><00><00><00><00>
<00><00><00><00><00><00><00><07><E3><00><08><00><1C><00><08><00><36><00><0A><02>
<49><00><00><00><00><00><00><00><00><00><03><00><00><00><00><00><00><00><00><00>
<00><00><00><00><00><00><00><00><00><00><00><00><00><00><00><00><00><00><00><00>
<00><00><00><00><00><00><00><00><00><00><00><00><00><00><00><00><00><00><00><00>
<00><00><00><00><00><00><00><07><E3><00><08><00><1C><00><08><00><36><00><0A><02>
